
**** 07/18/13 11:33:06 ************** PSpice Lite (Mar 2000) *****************

 ** Profile: "SCHEMATIC1-bias"  [ C:\Users\Archit\Desktop\PSPICE Simulations\Chua\Using Netlist\chua-schematic1-bias.sim ] 


 ****     CIRCUIT DESCRIPTION


******************************************************************************




** Creating circuit file "chua-schematic1-bias.sim.cir" 
** WARNING: THIS AUTOMATICALLY GENERATED FILE MAY BE OVERWRITTEN BY SUBSEQUENT SIMULATIONS

*Libraries: 
* Local Libraries :
* From [PSPICE NETLIST] section of C:\Program Files\OrcadLite\PSpice\PSpice.ini file:
.lib "nom.lib" 

*Analysis directives: 
.TEMP 26
.PROBE V(*) I(*) W(*) D(*) NOISE(*) 
.INC ".\chua-SCHEMATIC1.net" 



**** INCLUDING chua-SCHEMATIC1.net ****
* Chua Circuit  

.model nbjt NPN IS = 1e-9 BF = 100 BR = 1

VCC1  13  0   12
VCC2  14  0   12
V1    1   2   10
V2    11  3   2
R1    2   3   1e4
R2    4   13  4e3
R3    5   14  4e3
R4    1   0   5e3
R5    4   6   3e4
R6    8   0   500
R7    9   0   500
R8    5   7   3e4
R9    6   0   10.1e3
R10   7   0   10.1e3
R11   13  10  4e3
R12   14  12  4e3
R13   10  3   30e3
R14   12  11  30e3
Q1    4   1   8     nbjt
Q2    10  6   8     nbjt
Q3    5   1   9     nbjt
Q4    12  7   9     nbjt
  
  .nodeset v(3)=0 v(4)=0 v(5)=0 v(6)=0 v(7)=0 v(10)=0 v(11)=0 v(12)=0
* .nodeset v(3)=0 v(4)=5 v(5)=1.5 v(6)=1.8 v(7)=0 v(10)=5 v(11)=0 v(12)=0
* .nodeset v(3)=0 v(4)=0 v(5)=0 v(6)=5 v(7)=0 v(10)=0 v(11)=0 v(12)=0
* .nodeset v(3)=0 v(4)=0 v(5)=0 v(6)=5 v(7)=5 v(10)=0 v(11)=0 v(12)=5
* .nodeset v(3)=-5 v(4)=5 v(5)=5 v(6)=1.9 v(7)=1.9 v(10)=5 v(11)=0 v(12)=5
* .nodeset v(3)=0 v(4)=1.5 v(5)=5 v(6)=0 v(7)=1.8 v(10)=5 v(11)=0 v(12)=5
* .nodeset v(3)=0 v(4)=0 v(5)=0 v(6)=0 v(7)=5 v(10)=0 v(11)=0 v(12)=0
* .nodeset v(3)=0 v(4)=0 v(5)=0 v(6)=5 v(7)=5 v(10)=5 v(11)=0 v(12)=0
* .nodeset v(3)=0 v(4)=0 v(5)=0 v(6)=5 v(7)=5 v(10)=0 v(11)=0 v(12)=0

.op

**** RESUMING chua-schematic1-bias.sim.cir ****
.END

**** 07/18/13 11:33:06 ************** PSpice Lite (Mar 2000) *****************

 ** Profile: "SCHEMATIC1-bias"  [ C:\Users\Archit\Desktop\PSPICE Simulations\Chua\Using Netlist\chua-schematic1-bias.sim ] 


 ****     BJT MODEL PARAMETERS


******************************************************************************




               nbjt            
               NPN             
          IS    1.000000E-09 
          BF  100            
          NF    1            
          BR    1            
          NR    1            
          CN    2.42         
           D     .87         


**** 07/18/13 11:33:06 ************** PSpice Lite (Mar 2000) *****************

 ** Profile: "SCHEMATIC1-bias"  [ C:\Users\Archit\Desktop\PSPICE Simulations\Chua\Using Netlist\chua-schematic1-bias.sim ] 


 ****     TEMPERATURE-ADJUSTED VALUES      TEMPERATURE =   26.000 DEG C


******************************************************************************




 **** BJT MODEL PARAMETERS

                    nbjt      

         BF        1.000E+02  
        ISE        0.000E+00  
        VJE        7.517E-01  
        CJE        0.000E+00  
         RE        0.000E+00  
         RB        0.000E+00  
         BR        1.000E+00  
        ISC        0.000E+00  
        VJC        7.517E-01  
        CJC        0.000E+00  
         RC        0.000E+00  
        RBM        0.000E+00  
         IS        8.577E-10  
        ISS        0.000E+00  
        VJS        7.517E-01  
        CJS        0.000E+00  
      GAMMA        1.000E-11  
        RCO        0.000E+00  
         VO        1.000E+01  


**** 07/18/13 11:33:06 ************** PSpice Lite (Mar 2000) *****************

 ** Profile: "SCHEMATIC1-bias"  [ C:\Users\Archit\Desktop\PSPICE Simulations\Chua\Using Netlist\chua-schematic1-bias.sim ] 


 ****     SMALL SIGNAL BIAS SOLUTION       TEMPERATURE =   26.000 DEG C


******************************************************************************



 NODE   VOLTAGE     NODE   VOLTAGE     NODE   VOLTAGE     NODE   VOLTAGE


(    1)    1.7754  (    2)   -8.2246  (    3)   -1.1044  (    4)    1.4643      

(    5)    1.4643  (    6)     .3688  (    7)     .3688  (    8)    1.3879      

(    9)    1.3879  (   10)   10.4580  (   11)     .8956  (   12)   10.6940      

(   13)   12.0000  (   14)   12.0000  




    VOLTAGE SOURCE CURRENTS
    NAME         CURRENT

    VCC1        -3.019E-03
    VCC2        -2.961E-03
    V1          -7.120E-04
    V2           3.266E-04

    TOTAL POWER DISSIPATION   7.82E-02  WATTS


**** 07/18/13 11:33:06 ************** PSpice Lite (Mar 2000) *****************

 ** Profile: "SCHEMATIC1-bias"  [ C:\Users\Archit\Desktop\PSPICE Simulations\Chua\Using Netlist\chua-schematic1-bias.sim ] 


 ****     OPERATING POINT INFORMATION      TEMPERATURE =   26.000 DEG C


******************************************************************************






**** BIPOLAR JUNCTION TRANSISTORS


NAME         Q1          Q2          Q3          Q4        
MODEL        nbjt        nbjt        nbjt        nbjt      
IB           1.79E-04   -8.76E-10    1.79E-04   -8.77E-10 
IC           2.60E-03    8.77E-10    2.60E-03    8.77E-10 
VBE          3.88E-01   -1.02E+00    3.88E-01   -1.02E+00 
VBC          3.11E-01   -1.01E+01    3.11E-01   -1.03E+01 
VCE          7.64E-02    9.07E+00    7.64E-02    9.31E+00 
BETADC       1.45E+01   -1.00E+00    1.45E+01   -1.00E+00 
GM           1.07E-01    0.00E+00    1.07E-01    0.00E+00 
RPI          8.90E+02    1.00E+14    8.90E+02    1.00E+14 
RX           0.00E+00    0.00E+00    0.00E+00    0.00E+00 
RO           1.72E+02    1.00E+12    1.72E+02    1.00E+12 
CBE          0.00E+00    0.00E+00    0.00E+00    0.00E+00 
CBC          0.00E+00    0.00E+00    0.00E+00    0.00E+00 
CJS          0.00E+00    0.00E+00    0.00E+00    0.00E+00 
BETAAC       9.48E+01    0.00E+00    9.48E+01    0.00E+00 
CBX/CBX2     0.00E+00    0.00E+00    0.00E+00    0.00E+00 
FT/FT2       1.70E+18    0.00E+00    1.70E+18    0.00E+00 



          JOB CONCLUDED

          TOTAL JOB TIME            0.00
